! Created Sat Jan 18 22:57:34 2025
! List of port names and net name(s): example Port n = <port_name> <net_name1> <net_name2> ...
! Port 1 = P1 P1 
# hz S ma R 50
! 1 Port Network Data from data block
! freq  magS11  angS11  
!     
2e+09       0.958417213        -75.6827072
2.0046875e+09        0.95912524        -76.4867872
2.009375e+09       0.959767301        -77.2832834
2.0140625e+09       0.960350002        -78.0725267
2.01875e+09        0.96087929        -78.8548382
2.0234375e+09       0.961360513        -79.6305279
2.028125e+09        0.96179848        -80.3998945
2.0328125e+09       0.962197513        -81.1632246
2.0375e+09       0.962561496         -81.920793
2.0421875e+09       0.962893915        -82.6728621
2.046875e+09       0.963197903        -83.4196826
2.0515625e+09       0.963476271        -84.1614933
2.05625e+09       0.963731542        -84.8985213
2.0609375e+09       0.963965982        -85.6309828
2.065625e+09       0.964181623         -86.359083
2.0703125e+09       0.964380287        -87.0830169
2.075e+09       0.964563609        -87.8029694
2.0796875e+09       0.964733057        -88.5191159
2.084375e+09       0.964889946        -89.2316225
2.0890625e+09       0.965035455         -89.940647
2.09375e+09        0.96517064        -90.6463385
2.0984375e+09        0.96529645        -91.3488385
2.103125e+09       0.965413732        -92.0482811
2.1078125e+09       0.965523248        -92.7447932
2.1125e+09        0.96562568         -93.438495
2.1171875e+09       0.965721636        -94.1295005
2.121875e+09       0.965811663        -94.8179177
2.1265625e+09       0.965896251        -95.5038488
2.13125e+09       0.965975836        -96.1873909
2.1359375e+09        0.96605081        -96.8686358
2.140625e+09       0.966121522        -97.5476707
2.1453125e+09       0.966188287        -98.2245784
2.15e+09       0.966251383        -98.8994372
2.1546875e+09       0.966311061        -99.5723217
2.159375e+09       0.966367544        -100.243302
2.1640625e+09       0.966421032        -100.912447
2.16875e+09       0.966471703        -101.579818
2.1734375e+09       0.966519716        -102.245478
2.178125e+09       0.966565213        -102.909483
2.1828125e+09       0.966608323        -103.571888
2.1875e+09       0.966649157        -104.232746
2.196875e+09       0.966724398        -105.550018
2.20625e+09       0.966791625        -106.861667
2.215625e+09       0.966851394        -108.168032
2.225e+09       0.966904152         -109.46942
2.23203125e+09       0.966939341        -110.442365
2.2390625e+09       0.966970921         -111.41278
2.24609375e+09       0.966999005        -112.380769
2.253125e+09       0.967023691        -113.346427
2.26015625e+09       0.967045067        -114.309848
2.2671875e+09       0.967063212        -115.271118
2.27421875e+09       0.967078197        -116.230319
2.28125e+09       0.967090088        -117.187529
2.28828125e+09       0.967098947        -118.142823
2.2953125e+09       0.967104831         -119.09627
2.30234375e+09       0.967107797        -120.047939
2.309375e+09       0.967107897        -120.997894
2.31640625e+09       0.967105182        -121.946198
2.3234375e+09       0.967099703         -122.89291
2.33046875e+09       0.967091509        -123.838089
2.3375e+09       0.967080648        -124.781792
2.34453125e+09       0.967067168        -125.724072
2.3515625e+09       0.967051114        -126.664982
2.35859375e+09       0.967032534        -127.604576
2.365625e+09        0.96701147        -128.542903
2.37265625e+09       0.966987968        -129.480015
2.3796875e+09        0.96696207        -130.415959
2.38671875e+09       0.966933816        -131.350786
2.39375e+09       0.966903247        -132.284543
2.40078125e+09         0.9668704        -133.217278
2.4078125e+09       0.966835312        -134.149039
2.41484375e+09       0.966798016        -135.079872
2.421875e+09       0.966758544        -136.009826
2.42890625e+09       0.966716925        -136.938948
2.4359375e+09       0.966673184        -137.867285
2.44296875e+09       0.966627346        -138.794884
2.45e+09        0.96657943        -139.721795
2.45859375e+09       0.966518069        -140.853819
2.4671875e+09       0.966453651        -141.984975
2.47578125e+09       0.966386192        -143.115351
2.484375e+09       0.966315695         -144.24504
2.49296875e+09       0.966242159        -145.374133
2.5015625e+09       0.966165567        -146.502724
2.51015625e+09       0.966085895         -147.63091
2.51875e+09       0.966003107        -148.758786
2.52734375e+09       0.965917158        -149.886453
2.5359375e+09       0.965827987        -151.014012
2.54453125e+09       0.965735525        -152.141566
2.553125e+09        0.96563969         -153.26922
2.56171875e+09       0.965540385        -154.397082
2.5703125e+09       0.965437503        -155.525263
2.57890625e+09       0.965330924        -156.653875
2.5875e+09       0.965220514        -157.783034
2.59609375e+09       0.965106124        -158.912858
2.6046875e+09       0.964987596        -160.043468
2.61328125e+09       0.964864754        -161.174986
2.621875e+09       0.964737411        -162.307541
2.63046875e+09       0.964605365        -163.441261
2.6390625e+09       0.964468402         -164.57628
2.64765625e+09       0.964326292        -165.712734
2.65625e+09       0.964178794        -166.850761
2.66484375e+09       0.964025651        -167.990506
2.6734375e+09       0.963866594        -169.132113
2.68203125e+09       0.963701339        -170.275734
2.690625e+09       0.963529591         -171.42152
2.69921875e+09        0.96335104         -172.56963
2.7078125e+09       0.963165362        -173.720225
2.71640625e+09       0.962972224        -174.873469
2.725e+09       0.962771278        -176.029531
2.73359375e+09       0.962562163        -177.188584
2.7421875e+09       0.962344508        -178.350806
2.75078125e+09       0.962117929        -179.516377
2.759375e+09       0.961882032         179.314517
2.76796875e+09       0.961636411         178.141685
2.7765625e+09       0.961380651         176.964933
2.78515625e+09       0.961114327         175.784062
2.79375e+09       0.960837004         174.598867
2.80234375e+09       0.960548239          173.40914
2.8109375e+09       0.960247582         172.214667
2.81953125e+09       0.959934575          171.01523
2.828125e+09       0.959608753         169.810605
2.83671875e+09       0.959269646         168.600562
2.8453125e+09       0.958916781         167.384869
2.85390625e+09        0.95854968         166.163284
2.8625e+09       0.958167862         164.935563
2.87109375e+09       0.957770847         163.701457
2.8796875e+09       0.957358154         162.460708
2.88828125e+09       0.956929302         161.213055
2.896875e+09       0.956483816          159.95823
2.90546875e+09       0.956021223         158.695961
2.9140625e+09       0.955541058         157.425967
2.92265625e+09       0.955042863         156.147964
2.93125e+09       0.954526192         154.861661
2.93984375e+09        0.95399061          153.56676
2.9484375e+09       0.953435698         152.262959
2.95703125e+09       0.952861052         150.949947
2.965625e+09        0.95226629         149.627409
2.97421875e+09       0.951651052         148.295024
2.9828125e+09       0.951015004         146.952465
2.99140625e+09       0.950357841         145.599396
3e+09       0.949679291         144.235479
