! Created Wed Jan 29 15:37:43 2025
! List of port names and net name(s): example Port n = <port_name> <net_name1> <net_name2> ...
! Port 1 = P2 P1 
# hz S ma R 50
! 1 Port Network Data from data block
! freq  magS11  angS11  
!     
2.2e+09       0.902491973         118.210522
2.20347222e+09       0.902167691         117.154827
2.20694444e+09       0.901741847         116.098994
2.21041667e+09       0.901215354         115.041855
2.21388889e+09        0.90058877         113.982261
2.21736111e+09       0.899862312         112.919084
2.22083333e+09       0.899035871         111.851206
2.22430556e+09       0.898109024         110.777521
2.22777778e+09       0.897081043         109.696928
2.23125e+09       0.895950905         108.608327
2.23472222e+09       0.894717295         107.510617
2.23819444e+09       0.893378613         106.402691
2.24166667e+09       0.891932981         105.283434
2.24513889e+09       0.890378243         104.151718
2.24861111e+09       0.888711969         103.006401
2.25208333e+09       0.886931456         101.846321
2.25555556e+09       0.885033732         100.670295
2.25902778e+09       0.883015554         99.4771135
2.2625e+09       0.880873414         98.2655404
2.26597222e+09       0.878603535         97.0343062
2.26944444e+09       0.876201879         95.7821067
2.27291667e+09       0.873664145         94.5075991
2.27638889e+09       0.870985778         93.2093988
2.27986111e+09       0.868161969         91.8860754
2.28333333e+09       0.865187667         90.5361497
2.2859375e+09       0.862855009         89.5053282
2.28854167e+09       0.860432418         88.4580156
2.29114583e+09       0.857917514         87.3935261
2.29375e+09       0.855307859         86.3111547
2.29635417e+09       0.852600952         85.2101757
2.29895833e+09       0.849794247         84.0898422
2.3015625e+09       0.846885151         82.9493849
2.30416667e+09       0.843871036         81.7880114
2.30677083e+09       0.840749249         80.6049052
2.309375e+09       0.837517121         79.3992248
2.31197917e+09       0.834171981         78.1701029
2.31458333e+09        0.83071117         76.9166455
2.3171875e+09       0.827132058         75.6379311
2.31979167e+09        0.82343206         74.3330099
2.32239583e+09       0.819608659         73.0009029
2.325e+09        0.81565943         71.6406015
2.32760417e+09       0.811582061         70.2510666
2.33020833e+09       0.807374389         68.8312285
2.3328125e+09       0.803034427         67.3799858
2.33541667e+09       0.798560403         65.8962058
2.33802083e+09       0.793950795          64.378724
2.340625e+09       0.789204379         62.8263444
2.34322917e+09       0.784320275         61.2378395
2.34583333e+09       0.779297994         59.6119511
2.34713542e+09       0.776735008         58.7845869
2.3484375e+09       0.774137502         57.9473915
2.34973958e+09       0.771505552         57.1001995
2.35104167e+09       0.768839271         56.2428439
2.35234375e+09       0.766138807         55.3751558
2.35364583e+09       0.763404351         54.4969649
2.35494792e+09       0.760636134         53.6080996
2.35625e+09       0.757834435         52.7083866
2.35755208e+09       0.754999577         51.7976516
2.35885417e+09       0.752131934          50.875719
2.36015625e+09       0.749231933         49.9424122
2.36145833e+09       0.746300054         48.9975539
2.36276042e+09       0.743336834         48.0409657
2.3640625e+09       0.740342873         47.0724691
2.36536458e+09       0.737318831         46.0918848
2.36666667e+09       0.734265432         45.0990336
2.36796875e+09       0.731183471         44.0937363
2.36927083e+09       0.728073812          43.075814
2.37057292e+09       0.724937393         42.0450883
2.371875e+09       0.721775228         41.0013817
2.37317708e+09        0.71858841         39.9445178
2.37447917e+09       0.715378112          38.874322
2.37578125e+09       0.712145593         37.7906211
2.37708333e+09       0.708892198         36.6932444
2.37838542e+09        0.70561936          35.582024
2.3796875e+09       0.702328605         34.4567949
2.38098958e+09       0.699021552         33.3173957
2.38229167e+09       0.695699914         32.1636693
2.38359375e+09       0.692365505         30.9954632
2.38489583e+09       0.689020235         29.8126302
2.38619792e+09       0.685666116         28.6150289
2.3875e+09       0.682305263         27.4025246
2.38880208e+09       0.678939892         26.1749898
2.39010417e+09       0.675572325          24.932305
2.39140625e+09       0.672204986         23.6743596
2.39270833e+09       0.668840404         22.4010525
2.39401042e+09       0.665481212         21.1122933
2.3953125e+09       0.662130145         19.8080028
2.39661458e+09       0.658790041         18.4881143
2.39791667e+09       0.655463836         17.1525744
2.39921875e+09       0.652154565         15.8013439
2.40052083e+09       0.648865356         14.4343994
2.40182292e+09       0.645599432         13.0517335
2.403125e+09         0.6423601         11.6533568
2.40442708e+09       0.639150752         10.2392984
2.40572917e+09       0.635974855         8.80960712
2.40703125e+09       0.632835951         7.36435302
2.40833333e+09       0.629737646         5.90362808
2.40963542e+09       0.626683602         4.42754761
2.4109375e+09       0.623677534         2.93625114
2.41223958e+09       0.620723196         1.42990364
2.41354167e+09       0.617824374       -0.091303516
2.41484375e+09       0.614984879         -1.6271516
2.41614583e+09       0.612208529        -3.17739362
2.41744792e+09       0.609499145        -4.74175352
2.41875e+09       0.606860535        -6.31992553
2.42005208e+09       0.604296482        -7.91157355
2.42135417e+09       0.601810734        -9.51633072
2.42265625e+09       0.599406987        -11.1337992
2.42395833e+09       0.597088874          -12.76355
2.42526042e+09       0.594859948        -14.4051231
2.4265625e+09       0.592723672        -16.0580279
2.42786458e+09       0.590683403        -17.7217435
2.42916667e+09       0.588742376        -19.3957198
2.43046875e+09       0.586903693        -21.0793784
2.43177083e+09       0.585170309        -22.7721139
2.43307292e+09       0.583545015        -24.4732957
2.434375e+09       0.582030429        -26.1822701
2.43567708e+09       0.580628985         -27.898362
2.43697917e+09       0.579342914        -29.6208778
2.43828125e+09        0.57817424        -31.3491075
2.43958333e+09       0.577124765        -33.0823271
2.44088542e+09       0.576196063           -34.8198
2.4421875e+09       0.575389464        -36.5607764
2.44348958e+09       0.574706054        -38.3044902
2.44479167e+09       0.574146663        -40.0501487
2.44609375e+09       0.573711863        -41.7969126
2.44739583e+09        0.57340198        -43.5438609
2.44869792e+09       0.573217102        -45.2899357
2.45e+09       0.573157111         -47.033873
2.45173611e+09       0.573270783          -49.35312
2.45347222e+09        0.57360411        -51.6616105
2.45520833e+09       0.574153227        -53.9553779
2.45694444e+09       0.574911671        -56.2323258
2.45802951e+09       0.575488882        -57.6469837
2.45911458e+09       0.576143952        -59.0555945
2.46019965e+09       0.576876143        -60.4584976
2.46128472e+09       0.577684931         -61.855843
2.46236979e+09        0.57856973         -63.247558
2.46345486e+09       0.579529716         -64.633387
2.46453993e+09       0.580563769        -66.0129566
2.465625e+09       0.581670505        -67.3858347
2.46671007e+09       0.582848332        -68.7515736
2.46779514e+09       0.584095503        -70.1097357
2.46888021e+09        0.58541017         -71.459907
2.46996528e+09       0.586790407         -72.801703
2.47105035e+09       0.588234241        -74.1347702
2.47213542e+09       0.589739659        -75.4587851
2.47322049e+09       0.591304624        -76.7734528
2.47430556e+09       0.592927077        -78.0785049
2.47539062e+09       0.594604945        -79.3736971
2.47647569e+09       0.596336146        -80.6588083
2.47756076e+09       0.598118591        -81.9336381
2.47864583e+09       0.599950191        -83.1980063
2.4797309e+09       0.601828856        -84.4517507
2.48081597e+09       0.603752505        -85.6947271
2.48190104e+09       0.605719063        -86.9268075
2.48298611e+09        0.60772647        -88.1478796
2.48407118e+09        0.60977268        -89.3578462
2.48515625e+09       0.611855666        -90.5566241
2.48624132e+09       0.613973425        -91.7441435
2.48732639e+09       0.616123975        -92.9203476
2.48841146e+09       0.618305365        -94.0851917
2.48949653e+09       0.620515671        -95.2386425
2.4905816e+09       0.622753003        -96.3806779
2.49166667e+09       0.625015505        -97.5112861
2.49296875e+09        0.62776117        -98.8529301
2.49427083e+09       0.630537386        -100.178131
2.49557292e+09        0.63334116        -101.486921
2.496875e+09       0.636169586         -102.77935
2.49817708e+09       0.639019844        -104.055482
2.49947917e+09       0.641889205        -105.315395
2.50078125e+09       0.644775032        -106.559183
2.50208333e+09       0.647674778         -107.78695
2.50338542e+09       0.650585992        -108.998812
2.5046875e+09       0.653506317        -110.194894
2.50598958e+09       0.656433487        -111.375332
2.50729167e+09       0.659365334        -112.540268
2.50859375e+09       0.662299779        -113.689854
2.50989583e+09       0.665234837        -114.824249
2.51119792e+09       0.668168616        -115.943614
2.5125e+09        0.67109931         -117.04812
2.51380208e+09       0.674025205        -118.137941
2.51510417e+09        0.67694467        -119.213253
2.51640625e+09       0.679856163        -120.274238
2.51770833e+09        0.68275822        -121.321081
2.51901042e+09       0.685649463        -122.353967
2.5203125e+09       0.688528589        -123.373085
2.52161458e+09       0.691394372        -124.378625
2.52291667e+09       0.694245661        -125.370778
2.52421875e+09       0.697081376        -126.349735
2.52552083e+09       0.699900508         -127.31569
2.52682292e+09       0.702702112        -128.268834
2.528125e+09       0.705485311         -129.20936
2.52942708e+09       0.708249288        -130.137459
2.53072917e+09       0.710993288        -131.053322
2.53203125e+09        0.71371661         -131.95714
2.53333333e+09       0.716418613        -132.849102
2.53506944e+09       0.719987105        -134.020265
2.53680556e+09       0.723515389        -135.171125
2.53854167e+09       0.727002356        -136.302118
2.54027778e+09       0.730447037        -137.413675
2.54201389e+09       0.733848598        -138.506219
2.54375e+09       0.737206327         -139.58017
2.54548611e+09       0.740519631        -140.635938
2.54722222e+09       0.743788024        -141.673928
2.54895833e+09       0.747011122        -142.694538
2.55069444e+09       0.750188633        -143.698156
2.55243056e+09       0.753320356        -144.685166
2.55416667e+09       0.756406166        -145.655943
2.55590278e+09       0.759446016        -146.610854
2.55763889e+09       0.762439928        -147.550258
2.559375e+09       0.765387983        -148.474508
2.56111111e+09       0.768290325        -149.383949
2.56284722e+09       0.771147148        -150.278917
2.56458333e+09       0.773958695        -151.159742
2.56631944e+09       0.776725253        -152.026746
2.56805556e+09       0.779447151        -152.880244
2.56979167e+09       0.782124751        -153.720543
2.57152778e+09        0.78475845        -154.547943
2.57326389e+09       0.787348674        -155.362738
2.575e+09       0.789895873        -156.165214
2.57673611e+09       0.792400523         -156.95565
2.57847222e+09       0.794863118         -157.73432
2.58020833e+09       0.797284173        -158.501489
2.58194444e+09       0.799664215        -159.257417
2.58368056e+09       0.802003788        -160.002358
2.58541667e+09       0.804303446        -160.736559
2.58715278e+09        0.80656375        -161.460262
2.58888889e+09       0.808785274        -162.173701
2.59236111e+09       0.813114292        -163.570702
2.59583333e+09       0.817295168        -164.929332
2.59930556e+09       0.821332609        -166.251276
2.60277778e+09       0.825231321        -167.538137
2.60625e+09       0.828995984        -168.791438
2.60972222e+09       0.832631223        -170.012631
2.61319444e+09       0.836141596        -171.203096
2.61666667e+09       0.839531571        -172.364148
2.62013889e+09       0.842805517        -173.497039
2.62361111e+09       0.845967692        -174.602961
2.62708333e+09       0.849022238        -175.683048
2.63055556e+09       0.851973174        -176.738383
2.63402778e+09       0.854824394        -177.769997
2.6375e+09       0.857579661        -178.778873
2.64097222e+09       0.860242609         -179.76595
2.64444444e+09       0.862816745         179.267876
2.64791667e+09       0.865305443         178.321753
2.65138889e+09       0.867711953         177.394862
2.65486111e+09       0.870039397         176.486425
2.65833333e+09       0.872290776         175.595696
2.66180556e+09        0.87446897         174.721962
2.66527778e+09       0.876576742          173.86454
2.66875e+09       0.878616742         173.022779
2.67222222e+09        0.88059151         172.196051
2.67916667e+09       0.884354971         170.585329
2.68611111e+09       0.887885368         169.027868
2.69305556e+09       0.891199403         167.519521
2.7e+09       0.894312352         166.056457
